T0DE0 000:004.532   SEGGER J-Link V7.56 Log File
T0DE0 000:004.641   DLL Compiled: Oct  7 2021 16:08:24
T0DE0 000:004.647   Logging started @ 2023-10-18 05:23
T0DE0 000:004.652 - 4.655ms
T0DE0 000:004.660 JLINK_SetWarnOutHandler(...)
T0DE0 000:004.667 - 0.009ms
T0DE0 000:004.673 JLINK_OpenEx(...)
T0DE0 000:006.737   Firmware: J-Link V9 compiled May  7 2021 16:26:12
T0DE0 000:007.250   Firmware: J-Link V9 compiled May  7 2021 16:26:12
T0DE0 000:007.536   Decompressing FW timestamp took 237 us
T0DE0 000:014.760   Hardware: V9.40
T0DE0 000:014.798   S/N: 59406895
T0DE0 000:014.807   OEM: SEGGER
T0DE0 000:014.816   Feature(s): RDI, GDB, FlashDL, FlashBP, JFlash
T0DE0 000:016.029   TELNET listener socket opened on port 19021
T0DE0 000:016.191   WEBSRV WEBSRV_Init(): Starting webserver thread(s)
T0DE0 000:016.389   WEBSRV Webserver running on local port 19080
T0DE0 000:041.253 - 36.607ms returns "O.K."
T0DE0 000:041.311 JLINK_GetEmuCaps()
T0DE0 000:041.322 - 0.015ms returns 0xB9FF7BBF
T0DE0 000:041.336 JLINK_TIF_GetAvailable(...)
T0DE0 000:041.618 - 0.298ms
T0DE0 000:041.645 JLINK_SetErrorOutHandler(...)
T0DE0 000:041.655 - 0.014ms
T0DE0 000:041.687 JLINK_ExecCommand("ProjectFile = "D:\PRO\LukaRGB\MDK-ARM\JLinkSettings.ini"", ...). 
T0DE0 000:050.254   Ref file found at: C:\Keil_v5\ARM\Segger\JLinkDevices.ref
T0DE0 000:050.361   XML referenced by ref file: C:\Program Files\SEGGER\JLink\JLinkDevices.xml
T0DE0 000:051.045   C:\Program Files\SEGGER\JLink\JLinkDevices.xml evaluated successfully.
T0DE0 000:078.028 - 36.356ms returns 0x00
T0DE0 000:082.185 JLINK_ExecCommand("Device = STM32F030F4Px", ...). 
T0DE0 000:084.853   Device "STM32F030F4" selected.
T0DE0 000:085.265 - 3.061ms returns 0x00
T0DE0 000:085.280 JLINK_ExecCommand("DisableConnectionTimeout", ...). 
T0DE0 000:085.289 - 0.004ms returns 0x01
T0DE0 000:085.296 JLINK_GetHardwareVersion()
T0DE0 000:085.301 - 0.008ms returns 94000
T0DE0 000:085.308 JLINK_GetDLLVersion()
T0DE0 000:085.313 - 0.007ms returns 75600
T0DE0 000:085.319 JLINK_GetOEMString(...)
T0DE0 000:085.325 JLINK_GetFirmwareString(...)
T0DE0 000:085.331 - 0.007ms
T0DE0 000:092.166 JLINK_GetDLLVersion()
T0DE0 000:092.194 - 0.031ms returns 75600
T0DE0 000:092.201 JLINK_GetCompileDateTime()
T0DE0 000:092.206 - 0.007ms
T0DE0 000:095.619 JLINK_GetFirmwareString(...)
T0DE0 000:095.652 - 0.035ms
T0DE0 000:097.746 JLINK_GetHardwareVersion()
T0DE0 000:097.770 - 0.027ms returns 94000
T0DE0 000:099.610 JLINK_GetSN()
T0DE0 000:099.629 - 0.021ms returns 59406895
T0DE0 000:101.385 JLINK_GetOEMString(...)
T0DE0 000:104.886 JLINK_TIF_Select(JLINKARM_TIF_SWD)
T0DE0 000:105.969 - 1.092ms returns 0x00
T0DE0 000:105.986 JLINK_HasError()
T0DE0 000:106.002 JLINK_SetSpeed(500)
T0DE0 000:106.208 - 0.212ms
T0DE0 000:106.223 JLINK_GetId()
T0DE0 000:110.290   InitTarget() start
T0DE0 000:110.317    J-Link Script File: Executing InitTarget()
T0DE0 000:126.983   InitTarget() end
T0DE0 000:130.467   Found SW-DP with ID 0x0BB11477
T0DE0 000:137.685   DPIDR: 0x0BB11477
T0DE0 000:139.832   Scanning AP map to find all available APs
T0DE0 000:143.422   AP[1]: Stopped AP scan as end of AP map has been reached
T0DE0 000:145.513   AP[0]: AHB-AP (IDR: 0x04770021)
T0DE0 000:147.876   Iterating through AP map to find AHB-AP to use
T0DE0 000:152.233   AP[0]: Core found
T0DE0 000:154.038   AP[0]: AHB-AP ROM base: 0xE00FF000
T0DE0 000:159.264   CPUID register: 0x410CC200. Implementer code: 0x41 (ARM)
T0DE0 000:161.351   Found Cortex-M0 r0p0, Little endian.
T0DE0 000:262.907   -- Max. mem block: 0x00010E60
T0DE0 000:263.286   CPU_ReadMem(4 bytes @ 0xE000EDF0)
T0DE0 000:264.257   CPU_ReadMem(4 bytes @ 0xE0002000)
T0DE0 000:269.115   FPUnit: 4 code (BP) slots and 0 literal slots
T0DE0 000:269.154   CPU_ReadMem(4 bytes @ 0xE000EDFC)
T0DE0 000:270.154   CPU_WriteMem(4 bytes @ 0xE000EDFC)
T0DE0 000:271.142   CPU_ReadMem(4 bytes @ 0xE0001000)
T0DE0 000:272.005   CPU_WriteMem(4 bytes @ 0xE0001000)
T0DE0 000:276.872   CoreSight components:
T0DE0 000:279.397   ROMTbl[0] @ E00FF000
T0DE0 000:279.435   CPU_ReadMem(64 bytes @ 0xE00FF000)
T0DE0 000:281.837   CPU_ReadMem(32 bytes @ 0xE000EFE0)
T0DE0 000:288.416   [0][0]: E000E000 CID B105E00D PID 000BB008 SCS
T0DE0 000:288.458   CPU_ReadMem(32 bytes @ 0xE0001FE0)
T0DE0 000:292.464   [0][1]: E0001000 CID B105E00D PID 000BB00A DWT
T0DE0 000:292.498   CPU_ReadMem(32 bytes @ 0xE0002FE0)
T0DE0 000:297.394   [0][2]: E0002000 CID B105E00D PID 000BB00B FPB
T0DE0 000:297.780 - 191.565ms returns 0x0BB11477
T0DE0 000:297.799 JLINK_GetDLLVersion()
T0DE0 000:297.804 - 0.008ms returns 75600
T0DE0 000:297.811 JLINK_CORE_GetFound()
T0DE0 000:297.816 - 0.007ms returns 0x60000FF
T0DE0 000:297.823 JLINK_GetDebugInfo(0x100 = JLINKARM_ROM_TABLE_ADDR_INDEX)
T0DE0 000:297.829   Value=0xE00FF000
T0DE0 000:297.837 - 0.016ms returns 0
T0DE0 000:300.613 JLINK_GetDebugInfo(0x100 = JLINKARM_ROM_TABLE_ADDR_INDEX)
T0DE0 000:300.645   Value=0xE00FF000
T0DE0 000:300.653 - 0.042ms returns 0
T0DE0 000:300.659 JLINK_GetDebugInfo(0x101 = JLINKARM_DEBUG_INFO_ETM_ADDR_INDEX)
T0DE0 000:300.665   Value=0x00000000
T0DE0 000:300.672 - 0.015ms returns 0
T0DE0 000:300.684 JLINK_ReadMemEx(0xE0041FF0, 0x10 Bytes, Flags = 0x02000004)
T0DE0 000:300.713   CPU_ReadMem(16 bytes @ 0xE0041FF0)
T0DE0 000:301.834   Data:  00 00 00 00 00 00 00 00 00 00 00 00 00 00 00 00
T0DE0 000:301.850 - 1.168ms returns 16 (0x10)
T0DE0 000:301.860 JLINK_GetDebugInfo(0x102 = JLINKARM_DEBUG_INFO_MTB_ADDR_INDEX)
T0DE0 000:301.866   Value=0x00000000
T0DE0 000:301.874 - 0.016ms returns 0
T0DE0 000:301.879 JLINK_GetDebugInfo(0x103 = JLINKARM_DEBUG_INFO_TPIU_ADDR_INDEX)
T0DE0 000:301.885   Value=0x00000000
T0DE0 000:301.892 - 0.015ms returns 0
T0DE0 000:301.898 JLINK_ReadMemEx(0xE0040FF0, 0x10 Bytes, Flags = 0x02000004)
T0DE0 000:301.912   CPU_ReadMem(16 bytes @ 0xE0040FF0)
T0DE0 000:303.143   Data:  00 00 00 00 00 00 00 00 00 00 00 00 00 00 00 00
T0DE0 000:303.154 - 1.258ms returns 16 (0x10)
T0DE0 000:303.161 JLINK_GetDebugInfo(0x104 = JLINKARM_DEBUG_INFO_ITM_ADDR_INDEX)
T0DE0 000:303.168   Value=0xE0000000
T0DE0 000:303.175 - 0.016ms returns 0
T0DE0 000:303.181 JLINK_GetDebugInfo(0x105 = JLINKARM_DEBUG_INFO_DWT_ADDR_INDEX)
T0DE0 000:303.186   Value=0xE0001000
T0DE0 000:303.193 - 0.014ms returns 0
T0DE0 000:303.199 JLINK_GetDebugInfo(0x106 = JLINKARM_DEBUG_INFO_FPB_ADDR_INDEX)
T0DE0 000:303.204   Value=0xE0002000
T0DE0 000:303.211 - 0.014ms returns 0
T0DE0 000:303.217 JLINK_GetDebugInfo(0x107 = JLINKARM_DEBUG_INFO_NVIC_ADDR_INDEX)
T0DE0 000:303.222   Value=0xE000E000
T0DE0 000:303.229 - 0.014ms returns 0
T0DE0 000:303.235 JLINK_GetDebugInfo(0x10C = JLINKARM_DEBUG_INFO_DBG_ADDR_INDEX)
T0DE0 000:303.240   Value=0xE000EDF0
T0DE0 000:303.247 - 0.014ms returns 0
T0DE0 000:303.253 JLINK_GetDebugInfo(0x01 = Unknown)
T0DE0 000:303.259   Value=0x00000000
T0DE0 000:303.266 - 0.015ms returns 0
T0DE0 000:303.271 JLINK_ReadMemU32(0xE000ED00, 0x1 Items)
T0DE0 000:303.280   CPU_ReadMem(4 bytes @ 0xE000ED00)
T0DE0 000:304.217   Data:  00 C2 0C 41
T0DE0 000:304.229   Debug reg: CPUID
T0DE0 000:304.236 - 0.967ms returns 1 (0x1)
T0DE0 000:304.243 JLINK_GetDebugInfo(0x10F = JLINKARM_DEBUG_INFO_HAS_CORTEX_M_SECURITY_EXT_INDEX)
T0DE0 000:304.249   Value=0x00000000
T0DE0 000:304.256 - 0.015ms returns 0
T0DE0 000:304.263 JLINK_HasError()
T0DE0 000:304.270 JLINK_SetResetType(JLINKARM_CM3_RESET_TYPE_NORMAL)
T0DE0 000:304.275 - 0.007ms returns JLINKARM_CM3_RESET_TYPE_NORMAL
T0DE0 000:304.281 JLINK_Reset()
T0DE0 000:304.296   CPU is running
T0DE0 000:304.304   CPU_WriteMem(4 bytes @ 0xE000EDF0)
T0DE0 000:305.280   CPU is running
T0DE0 000:305.306   CPU_WriteMem(4 bytes @ 0xE000EDFC)
T0DE0 000:308.351   Reset: Halt core after reset via DEMCR.VC_CORERESET.
T0DE0 000:311.183   Reset: Reset device via AIRCR.SYSRESETREQ.
T0DE0 000:311.220   CPU is running
T0DE0 000:311.233   CPU_WriteMem(4 bytes @ 0xE000ED0C)
T0DE0 000:364.886   CPU_ReadMem(4 bytes @ 0xE000EDF0)
T0DE0 000:365.870   CPU_ReadMem(4 bytes @ 0xE000EDF0)
T0DE0 000:366.801   CPU is running
T0DE0 000:366.818   CPU_WriteMem(4 bytes @ 0xE000EDF0)
T0DE0 000:367.830   CPU is running
T0DE0 000:367.843   CPU_WriteMem(4 bytes @ 0xE000EDFC)
T0DE0 000:374.316   CPU_ReadMem(4 bytes @ 0xE000EDF0)
T0DE0 000:386.470   CPU_WriteMem(4 bytes @ 0xE0002000)
T0DE0 000:387.436   CPU_ReadMem(4 bytes @ 0xE000EDFC)
T0DE0 000:388.398   CPU_ReadMem(4 bytes @ 0xE0001000)
T0DE0 000:389.215   CPU_WriteMem(4 bytes @ 0xE0001000)
T0DE0 000:390.174 - 85.901ms
T0DE0 000:390.195 JLINK_Halt()
T0DE0 000:390.200 - 0.008ms returns 0x00
T0DE0 000:390.207 JLINK_ReadMemU32(0xE000EDF0, 0x1 Items)
T0DE0 000:390.222   CPU_ReadMem(4 bytes @ 0xE000EDF0)
T0DE0 000:391.180   Data:  03 00 03 00
T0DE0 000:391.204   Debug reg: DHCSR
T0DE0 000:391.217 - 1.014ms returns 1 (0x1)
T0DE0 000:391.240 JLINK_WriteU32_64(0xE000EDF0, 0xA05F0003)
T0DE0 000:391.250   Debug reg: DHCSR
T0DE0 000:391.523   CPU_WriteMem(4 bytes @ 0xE000EDF0)
T0DE0 000:392.537 - 1.310ms returns 0 (0x00000000)
T0DE0 000:392.562 JLINK_WriteU32_64(0xE000EDFC, 0x01000000)
T0DE0 000:392.574   Debug reg: DEMCR
T0DE0 000:392.597   CPU_WriteMem(4 bytes @ 0xE000EDFC)
T0DE0 000:393.556 - 1.004ms returns 0 (0x00000000)
T0DE0 000:403.233 JLINK_GetHWStatus(...)
T0DE0 000:403.498 - 0.274ms returns 0
T0DE0 000:409.931 JLINK_GetNumBPUnits(Type = 0xFFFFFF00)
T0DE0 000:409.961 - 0.033ms returns 0x04
T0DE0 000:409.968 JLINK_GetNumBPUnits(Type = 0xF0)
T0DE0 000:409.974 - 0.008ms returns 0x2000
T0DE0 000:409.980 JLINK_GetNumWPUnits()
T0DE0 000:409.985 - 0.007ms returns 2
T0DE0 000:418.407 JLINK_GetSpeed()
T0DE0 000:418.436 - 0.032ms returns 500
T0DE0 000:421.935 JLINK_ReadMemU32(0xE000E004, 0x1 Items)
T0DE0 000:421.979   CPU_ReadMem(4 bytes @ 0xE000E004)
T0DE0 000:422.859   Data:  00 00 00 00
T0DE0 000:422.874 - 0.941ms returns 1 (0x1)
T0DE0 000:422.886 JLINK_Halt()
T0DE0 000:422.892 - 0.008ms returns 0x00
T0DE0 000:422.898 JLINK_IsHalted()
T0DE0 000:422.904 - 0.008ms returns TRUE
T0DE0 000:426.022 JLINK_WriteMem(0x20000000, 0x170 Bytes, ...)
T0DE0 000:426.041   Data:  00 BE 0A E0 0D 78 2D 06 68 40 08 24 40 00 00 D3 ...
T0DE0 000:426.245   CPU_WriteMem(368 bytes @ 0x20000000)
T0DE0 000:436.145 - 10.150ms returns 0x170
T0DE0 000:436.237 JLINK_HasError()
T0DE0 000:436.252 JLINK_WriteReg(R0, 0x08000000)
T0DE0 000:436.269 - 0.022ms returns 0
T0DE0 000:436.281 JLINK_WriteReg(R1, 0x007A1200)
T0DE0 000:436.291 - 0.018ms returns 0
T0DE0 000:436.306 JLINK_WriteReg(R2, 0x00000001)
T0DE0 000:436.327 - 0.028ms returns 0
T0DE0 000:436.342 JLINK_WriteReg(R3, 0x00000000)
T0DE0 000:436.353 - 0.015ms returns 0
T0DE0 000:436.364 JLINK_WriteReg(R4, 0x00000000)
T0DE0 000:436.374 - 0.014ms returns 0
T0DE0 000:436.385 JLINK_WriteReg(R5, 0x00000000)
T0DE0 000:436.395 - 0.015ms returns 0
T0DE0 000:436.406 JLINK_WriteReg(R6, 0x00000000)
T0DE0 000:436.416 - 0.015ms returns 0
T0DE0 000:436.428 JLINK_WriteReg(R7, 0x00000000)
T0DE0 000:436.438 - 0.014ms returns 0
T0DE0 000:436.448 JLINK_WriteReg(R8, 0x00000000)
T0DE0 000:436.471 - 0.027ms returns 0
T0DE0 000:436.481 JLINK_WriteReg(R9, 0x2000016C)
T0DE0 000:436.491 - 0.014ms returns 0
T0DE0 000:436.502 JLINK_WriteReg(R10, 0x00000000)
T0DE0 000:436.512 - 0.014ms returns 0
T0DE0 000:436.522 JLINK_WriteReg(R11, 0x00000000)
T0DE0 000:436.532 - 0.014ms returns 0
T0DE0 000:436.543 JLINK_WriteReg(R12, 0x00000000)
T0DE0 000:436.553 - 0.014ms returns 0
T0DE0 000:436.564 JLINK_WriteReg(R13 (SP), 0x20001000)
T0DE0 000:436.575 - 0.015ms returns 0
T0DE0 000:436.586 JLINK_WriteReg(R14, 0x20000001)
T0DE0 000:436.596 - 0.014ms returns 0
T0DE0 000:436.606 JLINK_WriteReg(R15 (PC), 0x20000038)
T0DE0 000:436.617 - 0.015ms returns 0
T0DE0 000:436.627 JLINK_WriteReg(XPSR, 0x01000000)
T0DE0 000:436.637 - 0.014ms returns 0
T0DE0 000:436.648 JLINK_WriteReg(MSP, 0x20001000)
T0DE0 000:436.658 - 0.014ms returns 0
T0DE0 000:436.668 JLINK_WriteReg(PSP, 0x20001000)
T0DE0 000:436.678 - 0.014ms returns 0
T0DE0 000:436.689 JLINK_WriteReg(CFBP, 0x00000000)
T0DE0 000:436.699 - 0.014ms returns 0
T0DE0 000:436.710 JLINK_SetBPEx(Addr = 0x20000000, Type = 0xFFFFFFF2)
T0DE0 000:436.733   CPU_ReadMem(2 bytes @ 0x20000000)
T0DE0 000:437.646 - 0.945ms returns 0x00000001
T0DE0 000:437.660 JLINK_Go()
T0DE0 000:437.669   CPU_WriteMem(2 bytes @ 0x20000000)
T0DE0 000:438.660   CPU_ReadMem(4 bytes @ 0xE0001000)
T0DE0 000:439.611   CPU_WriteMem(4 bytes @ 0xE0001000)
T0DE0 000:439.634   CPU_WriteMem(4 bytes @ 0xE0002008)
T0DE0 000:439.648   CPU_WriteMem(4 bytes @ 0xE000200C)
T0DE0 000:439.662   CPU_WriteMem(4 bytes @ 0xE0002010)
T0DE0 000:439.676   CPU_WriteMem(4 bytes @ 0xE0002014)
T0DE0 000:443.276   CPU_WriteMem(4 bytes @ 0xE0001004)
T0DE0 000:454.557 - 16.921ms
T0DE0 000:454.597 JLINK_IsHalted()
T0DE0 000:465.699   CPU_ReadMem(2 bytes @ 0x20000000)
T0DE0 000:466.798 - 12.218ms returns TRUE
T0DE0 000:466.830 JLINK_ReadReg(R15 (PC))
T0DE0 000:466.847 - 0.021ms returns 0x20000000
T0DE0 000:466.860 JLINK_ClrBPEx(BPHandle = 0x00000001)
T0DE0 000:466.870 - 0.015ms returns 0x00
T0DE0 000:466.883 JLINK_ReadReg(R0)
T0DE0 000:466.893 - 0.015ms returns 0x00000000
T0DE0 000:467.770 JLINK_HasError()
T0DE0 000:467.785 JLINK_WriteReg(R0, 0x08000000)
T0DE0 000:467.794 - 0.011ms returns 0
T0DE0 000:467.800 JLINK_WriteReg(R1, 0x00000400)
T0DE0 000:467.806 - 0.008ms returns 0
T0DE0 000:467.812 JLINK_WriteReg(R2, 0x000000FF)
T0DE0 000:467.818 - 0.008ms returns 0
T0DE0 000:467.824 JLINK_WriteReg(R3, 0x00000000)
T0DE0 000:467.829 - 0.008ms returns 0
T0DE0 000:467.835 JLINK_WriteReg(R4, 0x00000000)
T0DE0 000:467.841 - 0.008ms returns 0
T0DE0 000:467.847 JLINK_WriteReg(R5, 0x00000000)
T0DE0 000:467.852 - 0.008ms returns 0
T0DE0 000:467.858 JLINK_WriteReg(R6, 0x00000000)
T0DE0 000:467.864 - 0.008ms returns 0
T0DE0 000:467.869 JLINK_WriteReg(R7, 0x00000000)
T0DE0 000:467.875 - 0.008ms returns 0
T0DE0 000:467.881 JLINK_WriteReg(R8, 0x00000000)
T0DE0 000:467.887 - 0.008ms returns 0
T0DE0 000:467.892 JLINK_WriteReg(R9, 0x2000016C)
T0DE0 000:467.898 - 0.008ms returns 0
T0DE0 000:467.904 JLINK_WriteReg(R10, 0x00000000)
T0DE0 000:467.909 - 0.008ms returns 0
T0DE0 000:467.915 JLINK_WriteReg(R11, 0x00000000)
T0DE0 000:467.921 - 0.008ms returns 0
T0DE0 000:467.927 JLINK_WriteReg(R12, 0x00000000)
T0DE0 000:467.932 - 0.008ms returns 0
T0DE0 000:467.938 JLINK_WriteReg(R13 (SP), 0x20001000)
T0DE0 000:467.944 - 0.008ms returns 0
T0DE0 000:467.950 JLINK_WriteReg(R14, 0x20000001)
T0DE0 000:467.956 - 0.008ms returns 0
T0DE0 000:467.961 JLINK_WriteReg(R15 (PC), 0x20000020)
T0DE0 000:467.967 - 0.008ms returns 0
T0DE0 000:467.973 JLINK_WriteReg(XPSR, 0x01000000)
T0DE0 000:467.979 - 0.008ms returns 0
T0DE0 000:467.985 JLINK_WriteReg(MSP, 0x20001000)
T0DE0 000:467.990 - 0.008ms returns 0
T0DE0 000:467.996 JLINK_WriteReg(PSP, 0x20001000)
T0DE0 000:468.002 - 0.008ms returns 0
T0DE0 000:468.007 JLINK_WriteReg(CFBP, 0x00000000)
T0DE0 000:468.013 - 0.008ms returns 0
T0DE0 000:468.019 JLINK_SetBPEx(Addr = 0x20000000, Type = 0xFFFFFFF2)
T0DE0 000:468.026 - 0.009ms returns 0x00000002
T0DE0 000:468.032 JLINK_Go()
T0DE0 000:468.046   CPU_ReadMem(4 bytes @ 0xE0001000)
T0DE0 000:468.990   CPU_WriteMem(4 bytes @ 0xE0001000)
T0DE0 000:479.694 - 11.677ms
T0DE0 000:479.716 JLINK_IsHalted()
T0DE0 000:480.673 - 0.969ms returns FALSE
T0DE0 000:480.695 JLINK_HasError()
T0DE0 000:492.241 JLINK_IsHalted()
T0DE0 000:503.461   CPU_ReadMem(2 bytes @ 0x20000000)
T0DE0 000:504.431 - 12.197ms returns TRUE
T0DE0 000:504.449 JLINK_ReadReg(R15 (PC))
T0DE0 000:504.458 - 0.012ms returns 0x20000000
T0DE0 000:504.465 JLINK_ClrBPEx(BPHandle = 0x00000002)
T0DE0 000:504.471 - 0.008ms returns 0x00
T0DE0 000:504.478 JLINK_ReadReg(R0)
T0DE0 000:504.484 - 0.008ms returns 0x00000000
T0DE0 000:505.061 JLINK_HasError()
T0DE0 000:505.072 JLINK_WriteReg(R0, 0x08000400)
T0DE0 000:505.080 - 0.010ms returns 0
T0DE0 000:505.086 JLINK_WriteReg(R1, 0x00000400)
T0DE0 000:505.092 - 0.008ms returns 0
T0DE0 000:505.098 JLINK_WriteReg(R2, 0x000000FF)
T0DE0 000:505.104 - 0.008ms returns 0
T0DE0 000:505.110 JLINK_WriteReg(R3, 0x00000000)
T0DE0 000:505.115 - 0.008ms returns 0
T0DE0 000:505.121 JLINK_WriteReg(R4, 0x00000000)
T0DE0 000:505.127 - 0.065ms returns 0
T0DE0 000:505.194 JLINK_WriteReg(R5, 0x00000000)
T0DE0 000:505.200 - 0.008ms returns 0
T0DE0 000:505.206 JLINK_WriteReg(R6, 0x00000000)
T0DE0 000:505.211 - 0.008ms returns 0
T0DE0 000:505.219 JLINK_WriteReg(R7, 0x00000000)
T0DE0 000:505.225 - 0.008ms returns 0
T0DE0 000:505.231 JLINK_WriteReg(R8, 0x00000000)
T0DE0 000:505.236 - 0.008ms returns 0
T0DE0 000:505.243 JLINK_WriteReg(R9, 0x2000016C)
T0DE0 000:505.248 - 0.008ms returns 0
T0DE0 000:505.254 JLINK_WriteReg(R10, 0x00000000)
T0DE0 000:505.260 - 0.008ms returns 0
T0DE0 000:505.266 JLINK_WriteReg(R11, 0x00000000)
T0DE0 000:505.271 - 0.008ms returns 0
T0DE0 000:505.277 JLINK_WriteReg(R12, 0x00000000)
T0DE0 000:505.283 - 0.008ms returns 0
T0DE0 000:505.289 JLINK_WriteReg(R13 (SP), 0x20001000)
T0DE0 000:505.294 - 0.008ms returns 0
T0DE0 000:505.300 JLINK_WriteReg(R14, 0x20000001)
T0DE0 000:505.306 - 0.008ms returns 0
T0DE0 000:505.312 JLINK_WriteReg(R15 (PC), 0x20000020)
T0DE0 000:505.317 - 0.008ms returns 0
T0DE0 000:505.323 JLINK_WriteReg(XPSR, 0x01000000)
T0DE0 000:505.329 - 0.008ms returns 0
T0DE0 000:505.335 JLINK_WriteReg(MSP, 0x20001000)
T0DE0 000:505.340 - 0.008ms returns 0
T0DE0 000:505.346 JLINK_WriteReg(PSP, 0x20001000)
T0DE0 000:505.352 - 0.008ms returns 0
T0DE0 000:505.358 JLINK_WriteReg(CFBP, 0x00000000)
T0DE0 000:505.363 - 0.008ms returns 0
T0DE0 000:505.369 JLINK_SetBPEx(Addr = 0x20000000, Type = 0xFFFFFFF2)
T0DE0 000:505.376 - 0.009ms returns 0x00000003
T0DE0 000:505.382 JLINK_Go()
T0DE0 000:505.394   CPU_ReadMem(4 bytes @ 0xE0001000)
T0DE0 000:506.214   CPU_WriteMem(4 bytes @ 0xE0001000)
T0DE0 000:516.988 - 11.622ms
T0DE0 000:517.012 JLINK_IsHalted()
T0DE0 000:517.981 - 0.982ms returns FALSE
T0DE0 000:518.004 JLINK_HasError()
T0DE0 000:519.259 JLINK_IsHalted()
T0DE0 000:530.409   CPU_ReadMem(2 bytes @ 0x20000000)
T0DE0 000:531.391 - 12.140ms returns TRUE
T0DE0 000:531.409 JLINK_ReadReg(R15 (PC))
T0DE0 000:531.419 - 0.012ms returns 0x20000000
T0DE0 000:531.425 JLINK_ClrBPEx(BPHandle = 0x00000003)
T0DE0 000:531.431 - 0.008ms returns 0x00
T0DE0 000:531.439 JLINK_ReadReg(R0)
T0DE0 000:531.444 - 0.008ms returns 0x00000000
T0DE0 000:532.019 JLINK_HasError()
T0DE0 000:532.030 JLINK_WriteReg(R0, 0x08000800)
T0DE0 000:532.038 - 0.010ms returns 0
T0DE0 000:532.045 JLINK_WriteReg(R1, 0x00000400)
T0DE0 000:532.051 - 0.008ms returns 0
T0DE0 000:532.057 JLINK_WriteReg(R2, 0x000000FF)
T0DE0 000:532.062 - 0.008ms returns 0
T0DE0 000:532.068 JLINK_WriteReg(R3, 0x00000000)
T0DE0 000:532.074 - 0.008ms returns 0
T0DE0 000:532.080 JLINK_WriteReg(R4, 0x00000000)
T0DE0 000:532.085 - 0.008ms returns 0
T0DE0 000:532.091 JLINK_WriteReg(R5, 0x00000000)
T0DE0 000:532.097 - 0.008ms returns 0
T0DE0 000:532.103 JLINK_WriteReg(R6, 0x00000000)
T0DE0 000:532.108 - 0.008ms returns 0
T0DE0 000:532.114 JLINK_WriteReg(R7, 0x00000000)
T0DE0 000:532.120 - 0.008ms returns 0
T0DE0 000:532.126 JLINK_WriteReg(R8, 0x00000000)
T0DE0 000:532.131 - 0.008ms returns 0
T0DE0 000:532.137 JLINK_WriteReg(R9, 0x2000016C)
T0DE0 000:532.143 - 0.008ms returns 0
T0DE0 000:532.149 JLINK_WriteReg(R10, 0x00000000)
T0DE0 000:532.154 - 0.008ms returns 0
T0DE0 000:532.160 JLINK_WriteReg(R11, 0x00000000)
T0DE0 000:532.166 - 0.008ms returns 0
T0DE0 000:532.172 JLINK_WriteReg(R12, 0x00000000)
T0DE0 000:532.177 - 0.008ms returns 0
T0DE0 000:532.183 JLINK_WriteReg(R13 (SP), 0x20001000)
T0DE0 000:532.189 - 0.009ms returns 0
T0DE0 000:532.195 JLINK_WriteReg(R14, 0x20000001)
T0DE0 000:532.201 - 0.008ms returns 0
T0DE0 000:532.207 JLINK_WriteReg(R15 (PC), 0x20000020)
T0DE0 000:532.213 - 0.008ms returns 0
T0DE0 000:532.218 JLINK_WriteReg(XPSR, 0x01000000)
T0DE0 000:532.226 - 0.009ms returns 0
T0DE0 000:532.232 JLINK_WriteReg(MSP, 0x20001000)
T0DE0 000:532.237 - 0.008ms returns 0
T0DE0 000:532.243 JLINK_WriteReg(PSP, 0x20001000)
T0DE0 000:532.249 - 0.008ms returns 0
T0DE0 000:532.255 JLINK_WriteReg(CFBP, 0x00000000)
T0DE0 000:532.261 - 0.008ms returns 0
T0DE0 000:532.267 JLINK_SetBPEx(Addr = 0x20000000, Type = 0xFFFFFFF2)
T0DE0 000:532.278 - 0.016ms returns 0x00000004
T0DE0 000:532.287 JLINK_Go()
T0DE0 000:532.300   CPU_ReadMem(4 bytes @ 0xE0001000)
T0DE0 000:533.249   CPU_WriteMem(4 bytes @ 0xE0001000)
T0DE0 000:543.962 - 11.696ms
T0DE0 000:543.991 JLINK_IsHalted()
T0DE0 000:544.938 - 0.957ms returns FALSE
T0DE0 000:544.954 JLINK_HasError()
T0DE0 000:547.265 JLINK_IsHalted()
T0DE0 000:558.294   CPU_ReadMem(2 bytes @ 0x20000000)
T0DE0 000:559.269 - 12.020ms returns TRUE
T0DE0 000:559.300 JLINK_ReadReg(R15 (PC))
T0DE0 000:559.317 - 0.021ms returns 0x20000000
T0DE0 000:559.329 JLINK_ClrBPEx(BPHandle = 0x00000004)
T0DE0 000:559.340 - 0.015ms returns 0x00
T0DE0 000:559.352 JLINK_ReadReg(R0)
T0DE0 000:559.362 - 0.015ms returns 0x00000000
T0DE0 000:560.286 JLINK_HasError()
T0DE0 000:560.306 JLINK_WriteReg(R0, 0x08000C00)
T0DE0 000:560.320 - 0.019ms returns 0
T0DE0 000:560.331 JLINK_WriteReg(R1, 0x00000400)
T0DE0 000:560.342 - 0.015ms returns 0
T0DE0 000:560.353 JLINK_WriteReg(R2, 0x000000FF)
T0DE0 000:560.363 - 0.014ms returns 0
T0DE0 000:560.374 JLINK_WriteReg(R3, 0x00000000)
T0DE0 000:560.384 - 0.014ms returns 0
T0DE0 000:560.395 JLINK_WriteReg(R4, 0x00000000)
T0DE0 000:560.405 - 0.015ms returns 0
T0DE0 000:560.415 JLINK_WriteReg(R5, 0x00000000)
T0DE0 000:560.426 - 0.015ms returns 0
T0DE0 000:560.436 JLINK_WriteReg(R6, 0x00000000)
T0DE0 000:560.447 - 0.014ms returns 0
T0DE0 000:560.457 JLINK_WriteReg(R7, 0x00000000)
T0DE0 000:560.467 - 0.014ms returns 0
T0DE0 000:560.478 JLINK_WriteReg(R8, 0x00000000)
T0DE0 000:560.489 - 0.016ms returns 0
T0DE0 000:560.500 JLINK_WriteReg(R9, 0x2000016C)
T0DE0 000:560.510 - 0.014ms returns 0
T0DE0 000:560.521 JLINK_WriteReg(R10, 0x00000000)
T0DE0 000:560.531 - 0.014ms returns 0
T0DE0 000:560.542 JLINK_WriteReg(R11, 0x00000000)
T0DE0 000:560.552 - 0.014ms returns 0
T0DE0 000:560.563 JLINK_WriteReg(R12, 0x00000000)
T0DE0 000:560.573 - 0.014ms returns 0
T0DE0 000:560.584 JLINK_WriteReg(R13 (SP), 0x20001000)
T0DE0 000:560.595 - 0.015ms returns 0
T0DE0 000:560.606 JLINK_WriteReg(R14, 0x20000001)
T0DE0 000:560.616 - 0.015ms returns 0
T0DE0 000:560.627 JLINK_WriteReg(R15 (PC), 0x20000020)
T0DE0 000:560.637 - 0.014ms returns 0
T0DE0 000:560.648 JLINK_WriteReg(XPSR, 0x01000000)
T0DE0 000:560.658 - 0.014ms returns 0
T0DE0 000:560.669 JLINK_WriteReg(MSP, 0x20001000)
T0DE0 000:560.679 - 0.014ms returns 0
T0DE0 000:560.689 JLINK_WriteReg(PSP, 0x20001000)
T0DE0 000:560.699 - 0.014ms returns 0
T0DE0 000:560.710 JLINK_WriteReg(CFBP, 0x00000000)
T0DE0 000:560.720 - 0.014ms returns 0
T0DE0 000:560.731 JLINK_SetBPEx(Addr = 0x20000000, Type = 0xFFFFFFF2)
T0DE0 000:560.743 - 0.016ms returns 0x00000005
T0DE0 000:560.754 JLINK_Go()
T0DE0 000:560.779   CPU_ReadMem(4 bytes @ 0xE0001000)
T0DE0 000:561.794   CPU_WriteMem(4 bytes @ 0xE0001000)
T0DE0 000:572.926 - 12.214ms
T0DE0 000:572.979 JLINK_IsHalted()
T0DE0 000:573.966 - 0.999ms returns FALSE
T0DE0 000:573.985 JLINK_HasError()
T0DE0 000:575.262 JLINK_IsHalted()
T0DE0 000:586.304   CPU_ReadMem(2 bytes @ 0x20000000)
T0DE0 000:587.201 - 11.959ms returns TRUE
T0DE0 000:587.239 JLINK_ReadReg(R15 (PC))
T0DE0 000:587.284 - 0.049ms returns 0x20000000
T0DE0 000:587.297 JLINK_ClrBPEx(BPHandle = 0x00000005)
T0DE0 000:587.308 - 0.015ms returns 0x00
T0DE0 000:587.320 JLINK_ReadReg(R0)
T0DE0 000:587.330 - 0.015ms returns 0x00000000
T0DE0 000:588.081 JLINK_HasError()
T0DE0 000:588.097 JLINK_WriteReg(R0, 0x08001000)
T0DE0 000:588.107 - 0.012ms returns 0
T0DE0 000:588.113 JLINK_WriteReg(R1, 0x00000400)
T0DE0 000:588.119 - 0.008ms returns 0
T0DE0 000:588.126 JLINK_WriteReg(R2, 0x000000FF)
T0DE0 000:588.131 - 0.008ms returns 0
T0DE0 000:588.137 JLINK_WriteReg(R3, 0x00000000)
T0DE0 000:588.143 - 0.008ms returns 0
T0DE0 000:588.149 JLINK_WriteReg(R4, 0x00000000)
T0DE0 000:588.155 - 0.008ms returns 0
T0DE0 000:588.161 JLINK_WriteReg(R5, 0x00000000)
T0DE0 000:588.166 - 0.008ms returns 0
T0DE0 000:588.172 JLINK_WriteReg(R6, 0x00000000)
T0DE0 000:588.177 - 0.008ms returns 0
T0DE0 000:588.183 JLINK_WriteReg(R7, 0x00000000)
T0DE0 000:588.194 - 0.016ms returns 0
T0DE0 000:588.204 JLINK_WriteReg(R8, 0x00000000)
T0DE0 000:588.209 - 0.008ms returns 0
T0DE0 000:588.215 JLINK_WriteReg(R9, 0x2000016C)
T0DE0 000:588.221 - 0.008ms returns 0
T0DE0 000:588.227 JLINK_WriteReg(R10, 0x00000000)
T0DE0 000:588.232 - 0.009ms returns 0
T0DE0 000:588.239 JLINK_WriteReg(R11, 0x00000000)
T0DE0 000:588.245 - 0.008ms returns 0
T0DE0 000:588.251 JLINK_WriteReg(R12, 0x00000000)
T0DE0 000:588.256 - 0.008ms returns 0
T0DE0 000:588.262 JLINK_WriteReg(R13 (SP), 0x20001000)
T0DE0 000:588.269 - 0.009ms returns 0
T0DE0 000:588.275 JLINK_WriteReg(R14, 0x20000001)
T0DE0 000:588.280 - 0.008ms returns 0
T0DE0 000:588.286 JLINK_WriteReg(R15 (PC), 0x20000020)
T0DE0 000:588.291 - 0.008ms returns 0
T0DE0 000:588.297 JLINK_WriteReg(XPSR, 0x01000000)
T0DE0 000:588.303 - 0.008ms returns 0
T0DE0 000:588.309 JLINK_WriteReg(MSP, 0x20001000)
T0DE0 000:588.314 - 0.008ms returns 0
T0DE0 000:588.320 JLINK_WriteReg(PSP, 0x20001000)
T0DE0 000:588.326 - 0.008ms returns 0
T0DE0 000:588.332 JLINK_WriteReg(CFBP, 0x00000000)
T0DE0 000:588.337 - 0.008ms returns 0
T0DE0 000:588.343 JLINK_SetBPEx(Addr = 0x20000000, Type = 0xFFFFFFF2)
T0DE0 000:588.350 - 0.009ms returns 0x00000006
T0DE0 000:588.356 JLINK_Go()
T0DE0 000:588.373   CPU_ReadMem(4 bytes @ 0xE0001000)
T0DE0 000:589.222   CPU_WriteMem(4 bytes @ 0xE0001000)
T0DE0 000:600.178 - 11.839ms
T0DE0 000:600.203 JLINK_IsHalted()
T0DE0 000:601.221 - 1.026ms returns FALSE
T0DE0 000:601.236 JLINK_HasError()
T0DE0 000:605.257 JLINK_IsHalted()
T0DE0 000:616.400   CPU_ReadMem(2 bytes @ 0x20000000)
T0DE0 000:617.403 - 12.154ms returns TRUE
T0DE0 000:617.420 JLINK_ReadReg(R15 (PC))
T0DE0 000:617.430 - 0.012ms returns 0x20000000
T0DE0 000:617.436 JLINK_ClrBPEx(BPHandle = 0x00000006)
T0DE0 000:617.442 - 0.008ms returns 0x00
T0DE0 000:617.449 JLINK_ReadReg(R0)
T0DE0 000:617.455 - 0.008ms returns 0x00000000
T0DE0 000:618.037 JLINK_HasError()
T0DE0 000:618.049 JLINK_WriteReg(R0, 0x08001400)
T0DE0 000:618.057 - 0.010ms returns 0
T0DE0 000:618.063 JLINK_WriteReg(R1, 0x00000400)
T0DE0 000:618.069 - 0.008ms returns 0
T0DE0 000:618.075 JLINK_WriteReg(R2, 0x000000FF)
T0DE0 000:618.081 - 0.008ms returns 0
T0DE0 000:618.087 JLINK_WriteReg(R3, 0x00000000)
T0DE0 000:618.092 - 0.008ms returns 0
T0DE0 000:618.098 JLINK_WriteReg(R4, 0x00000000)
T0DE0 000:618.104 - 0.008ms returns 0
T0DE0 000:618.110 JLINK_WriteReg(R5, 0x00000000)
T0DE0 000:618.115 - 0.008ms returns 0
T0DE0 000:618.121 JLINK_WriteReg(R6, 0x00000000)
T0DE0 000:618.127 - 0.008ms returns 0
T0DE0 000:618.133 JLINK_WriteReg(R7, 0x00000000)
T0DE0 000:618.138 - 0.008ms returns 0
T0DE0 000:618.144 JLINK_WriteReg(R8, 0x00000000)
T0DE0 000:618.150 - 0.008ms returns 0
T0DE0 000:618.156 JLINK_WriteReg(R9, 0x2000016C)
T0DE0 000:618.161 - 0.008ms returns 0
T0DE0 000:618.167 JLINK_WriteReg(R10, 0x00000000)
T0DE0 000:618.173 - 0.008ms returns 0
T0DE0 000:618.179 JLINK_WriteReg(R11, 0x00000000)
T0DE0 000:618.184 - 0.008ms returns 0
T0DE0 000:618.190 JLINK_WriteReg(R12, 0x00000000)
T0DE0 000:618.196 - 0.008ms returns 0
T0DE0 000:618.202 JLINK_WriteReg(R13 (SP), 0x20001000)
T0DE0 000:618.208 - 0.008ms returns 0
T0DE0 000:618.214 JLINK_WriteReg(R14, 0x20000001)
T0DE0 000:618.219 - 0.008ms returns 0
T0DE0 000:618.225 JLINK_WriteReg(R15 (PC), 0x20000020)
T0DE0 000:618.231 - 0.008ms returns 0
T0DE0 000:618.237 JLINK_WriteReg(XPSR, 0x01000000)
T0DE0 000:618.242 - 0.009ms returns 0
T0DE0 000:618.250 JLINK_WriteReg(MSP, 0x20001000)
T0DE0 000:618.256 - 0.009ms returns 0
T0DE0 000:618.263 JLINK_WriteReg(PSP, 0x20001000)
T0DE0 000:618.270 - 0.010ms returns 0
T0DE0 000:618.278 JLINK_WriteReg(CFBP, 0x00000000)
T0DE0 000:618.284 - 0.009ms returns 0
T0DE0 000:618.291 JLINK_SetBPEx(Addr = 0x20000000, Type = 0xFFFFFFF2)
T0DE0 000:618.300 - 0.012ms returns 0x00000007
T0DE0 000:618.313 JLINK_Go()
T0DE0 000:618.329   CPU_ReadMem(4 bytes @ 0xE0001000)
T0DE0 000:619.215   CPU_WriteMem(4 bytes @ 0xE0001000)
T0DE0 000:629.870 - 11.573ms
T0DE0 000:629.894 JLINK_IsHalted()
T0DE0 000:630.908 - 1.029ms returns FALSE
T0DE0 000:630.932 JLINK_HasError()
T0DE0 000:634.269 JLINK_IsHalted()
T0DE0 000:645.529   CPU_ReadMem(2 bytes @ 0x20000000)
T0DE0 000:646.506 - 12.254ms returns TRUE
T0DE0 000:646.534 JLINK_ReadReg(R15 (PC))
T0DE0 000:646.547 - 0.015ms returns 0x20000000
T0DE0 000:646.553 JLINK_ClrBPEx(BPHandle = 0x00000007)
T0DE0 000:646.559 - 0.009ms returns 0x00
T0DE0 000:646.567 JLINK_ReadReg(R0)
T0DE0 000:646.572 - 0.008ms returns 0x00000000
T0DE0 000:647.159 JLINK_HasError()
T0DE0 000:647.175 JLINK_WriteReg(R0, 0x08001800)
T0DE0 000:647.184 - 0.011ms returns 0
T0DE0 000:647.191 JLINK_WriteReg(R1, 0x00000400)
T0DE0 000:647.197 - 0.008ms returns 0
T0DE0 000:647.203 JLINK_WriteReg(R2, 0x000000FF)
T0DE0 000:647.209 - 0.008ms returns 0
T0DE0 000:647.215 JLINK_WriteReg(R3, 0x00000000)
T0DE0 000:647.220 - 0.008ms returns 0
T0DE0 000:647.226 JLINK_WriteReg(R4, 0x00000000)
T0DE0 000:647.232 - 0.008ms returns 0
T0DE0 000:647.238 JLINK_WriteReg(R5, 0x00000000)
T0DE0 000:647.243 - 0.008ms returns 0
T0DE0 000:647.249 JLINK_WriteReg(R6, 0x00000000)
T0DE0 000:647.256 - 0.009ms returns 0
T0DE0 000:647.262 JLINK_WriteReg(R7, 0x00000000)
T0DE0 000:647.288 - 0.030ms returns 0
T0DE0 000:647.296 JLINK_WriteReg(R8, 0x00000000)
T0DE0 000:647.301 - 0.008ms returns 0
T0DE0 000:647.307 JLINK_WriteReg(R9, 0x2000016C)
T0DE0 000:647.313 - 0.008ms returns 0
T0DE0 000:647.319 JLINK_WriteReg(R10, 0x00000000)
T0DE0 000:647.324 - 0.008ms returns 0
T0DE0 000:647.330 JLINK_WriteReg(R11, 0x00000000)
T0DE0 000:647.336 - 0.008ms returns 0
T0DE0 000:647.342 JLINK_WriteReg(R12, 0x00000000)
T0DE0 000:647.347 - 0.008ms returns 0
T0DE0 000:647.353 JLINK_WriteReg(R13 (SP), 0x20001000)
T0DE0 000:647.359 - 0.008ms returns 0
T0DE0 000:647.365 JLINK_WriteReg(R14, 0x20000001)
T0DE0 000:647.371 - 0.008ms returns 0
T0DE0 000:647.377 JLINK_WriteReg(R15 (PC), 0x20000020)
T0DE0 000:647.382 - 0.008ms returns 0
T0DE0 000:647.388 JLINK_WriteReg(XPSR, 0x01000000)
T0DE0 000:647.394 - 0.008ms returns 0
T0DE0 000:647.400 JLINK_WriteReg(MSP, 0x20001000)
T0DE0 000:647.406 - 0.008ms returns 0
T0DE0 000:647.411 JLINK_WriteReg(PSP, 0x20001000)
T0DE0 000:647.417 - 0.008ms returns 0
T0DE0 000:647.423 JLINK_WriteReg(CFBP, 0x00000000)
T0DE0 000:647.429 - 0.008ms returns 0
T0DE0 000:647.435 JLINK_SetBPEx(Addr = 0x20000000, Type = 0xFFFFFFF2)
T0DE0 000:647.442 - 0.009ms returns 0x00000008
T0DE0 000:647.448 JLINK_Go()
T0DE0 000:647.464   CPU_ReadMem(4 bytes @ 0xE0001000)
T0DE0 000:648.390   CPU_WriteMem(4 bytes @ 0xE0001000)
T0DE0 000:659.235 - 11.805ms
T0DE0 000:659.260 JLINK_IsHalted()
T0DE0 000:660.183 - 0.936ms returns FALSE
T0DE0 000:660.206 JLINK_HasError()
T0DE0 000:667.276 JLINK_IsHalted()
T0DE0 000:678.527   CPU_ReadMem(2 bytes @ 0x20000000)
T0DE0 000:679.487 - 12.221ms returns TRUE
T0DE0 000:679.507 JLINK_ReadReg(R15 (PC))
T0DE0 000:679.517 - 0.012ms returns 0x20000000
T0DE0 000:679.524 JLINK_ClrBPEx(BPHandle = 0x00000008)
T0DE0 000:679.530 - 0.008ms returns 0x00
T0DE0 000:679.597 JLINK_ReadReg(R0)
T0DE0 000:679.613 - 0.019ms returns 0x00000000
T0DE0 000:680.198 JLINK_HasError()
T0DE0 000:680.209 JLINK_WriteReg(R0, 0x08001C00)
T0DE0 000:680.217 - 0.010ms returns 0
T0DE0 000:680.223 JLINK_WriteReg(R1, 0x00000400)
T0DE0 000:680.229 - 0.008ms returns 0
T0DE0 000:680.235 JLINK_WriteReg(R2, 0x000000FF)
T0DE0 000:680.241 - 0.008ms returns 0
T0DE0 000:680.247 JLINK_WriteReg(R3, 0x00000000)
T0DE0 000:680.253 - 0.008ms returns 0
T0DE0 000:680.261 JLINK_WriteReg(R4, 0x00000000)
T0DE0 000:680.266 - 0.008ms returns 0
T0DE0 000:680.272 JLINK_WriteReg(R5, 0x00000000)
T0DE0 000:680.278 - 0.008ms returns 0
T0DE0 000:680.284 JLINK_WriteReg(R6, 0x00000000)
T0DE0 000:680.291 - 0.009ms returns 0
T0DE0 000:680.297 JLINK_WriteReg(R7, 0x00000000)
T0DE0 000:680.302 - 0.008ms returns 0
T0DE0 000:680.308 JLINK_WriteReg(R8, 0x00000000)
T0DE0 000:680.314 - 0.008ms returns 0
T0DE0 000:680.320 JLINK_WriteReg(R9, 0x2000016C)
T0DE0 000:680.325 - 0.008ms returns 0
T0DE0 000:680.331 JLINK_WriteReg(R10, 0x00000000)
T0DE0 000:680.402 - 0.073ms returns 0
T0DE0 000:680.408 JLINK_WriteReg(R11, 0x00000000)
T0DE0 000:680.414 - 0.008ms returns 0
T0DE0 000:680.420 JLINK_WriteReg(R12, 0x00000000)
T0DE0 000:680.425 - 0.008ms returns 0
T0DE0 000:680.431 JLINK_WriteReg(R13 (SP), 0x20001000)
T0DE0 000:680.437 - 0.008ms returns 0
T0DE0 000:680.443 JLINK_WriteReg(R14, 0x20000001)
T0DE0 000:680.449 - 0.008ms returns 0
T0DE0 000:680.454 JLINK_WriteReg(R15 (PC), 0x20000020)
T0DE0 000:680.460 - 0.008ms returns 0
T0DE0 000:680.466 JLINK_WriteReg(XPSR, 0x01000000)
T0DE0 000:680.472 - 0.008ms returns 0
T0DE0 000:680.478 JLINK_WriteReg(MSP, 0x20001000)
T0DE0 000:680.483 - 0.008ms returns 0
T0DE0 000:680.489 JLINK_WriteReg(PSP, 0x20001000)
T0DE0 000:680.494 - 0.008ms returns 0
T0DE0 000:680.500 JLINK_WriteReg(CFBP, 0x00000000)
T0DE0 000:680.506 - 0.008ms returns 0
T0DE0 000:680.512 JLINK_SetBPEx(Addr = 0x20000000, Type = 0xFFFFFFF2)
T0DE0 000:680.519 - 0.009ms returns 0x00000009
T0DE0 000:680.525 JLINK_Go()
T0DE0 000:680.539   CPU_ReadMem(4 bytes @ 0xE0001000)
T0DE0 000:681.507   CPU_WriteMem(4 bytes @ 0xE0001000)
T0DE0 000:692.257 - 11.783ms
T0DE0 000:692.320 JLINK_IsHalted()
T0DE0 000:693.353 - 1.046ms returns FALSE
T0DE0 000:693.376 JLINK_HasError()
T0DE0 000:695.294 JLINK_IsHalted()
T0DE0 000:706.281   CPU_ReadMem(2 bytes @ 0x20000000)
T0DE0 000:707.300 - 12.020ms returns TRUE
T0DE0 000:707.329 JLINK_ReadReg(R15 (PC))
T0DE0 000:707.345 - 0.020ms returns 0x20000000
T0DE0 000:707.358 JLINK_ClrBPEx(BPHandle = 0x00000009)
T0DE0 000:707.368 - 0.015ms returns 0x00
T0DE0 000:707.380 JLINK_ReadReg(R0)
T0DE0 000:707.391 - 0.015ms returns 0x00000000
T0DE0 000:708.218 JLINK_HasError()
T0DE0 000:708.236 JLINK_WriteReg(R0, 0x08002000)
T0DE0 000:708.246 - 0.012ms returns 0
T0DE0 000:708.253 JLINK_WriteReg(R1, 0x00000400)
T0DE0 000:708.261 - 0.010ms returns 0
T0DE0 000:708.267 JLINK_WriteReg(R2, 0x000000FF)
T0DE0 000:708.272 - 0.008ms returns 0
T0DE0 000:708.278 JLINK_WriteReg(R3, 0x00000000)
T0DE0 000:708.284 - 0.008ms returns 0
T0DE0 000:708.290 JLINK_WriteReg(R4, 0x00000000)
T0DE0 000:708.296 - 0.008ms returns 0
T0DE0 000:708.302 JLINK_WriteReg(R5, 0x00000000)
T0DE0 000:708.307 - 0.008ms returns 0
T0DE0 000:708.313 JLINK_WriteReg(R6, 0x00000000)
T0DE0 000:708.319 - 0.008ms returns 0
T0DE0 000:708.325 JLINK_WriteReg(R7, 0x00000000)
T0DE0 000:708.330 - 0.008ms returns 0
T0DE0 000:708.336 JLINK_WriteReg(R8, 0x00000000)
T0DE0 000:708.342 - 0.008ms returns 0
T0DE0 000:708.348 JLINK_WriteReg(R9, 0x2000016C)
T0DE0 000:708.353 - 0.008ms returns 0
T0DE0 000:708.359 JLINK_WriteReg(R10, 0x00000000)
T0DE0 000:708.365 - 0.008ms returns 0
T0DE0 000:708.370 JLINK_WriteReg(R11, 0x00000000)
T0DE0 000:708.376 - 0.008ms returns 0
T0DE0 000:708.382 JLINK_WriteReg(R12, 0x00000000)
T0DE0 000:708.388 - 0.008ms returns 0
T0DE0 000:708.394 JLINK_WriteReg(R13 (SP), 0x20001000)
T0DE0 000:708.400 - 0.008ms returns 0
T0DE0 000:708.406 JLINK_WriteReg(R14, 0x20000001)
T0DE0 000:708.411 - 0.008ms returns 0
T0DE0 000:708.417 JLINK_WriteReg(R15 (PC), 0x20000020)
T0DE0 000:708.423 - 0.008ms returns 0
T0DE0 000:708.429 JLINK_WriteReg(XPSR, 0x01000000)
T0DE0 000:708.434 - 0.008ms returns 0
T0DE0 000:708.440 JLINK_WriteReg(MSP, 0x20001000)
T0DE0 000:708.446 - 0.008ms returns 0
T0DE0 000:708.452 JLINK_WriteReg(PSP, 0x20001000)
T0DE0 000:708.457 - 0.008ms returns 0
T0DE0 000:708.463 JLINK_WriteReg(CFBP, 0x00000000)
T0DE0 000:708.469 - 0.008ms returns 0
T0DE0 000:708.475 JLINK_SetBPEx(Addr = 0x20000000, Type = 0xFFFFFFF2)
T0DE0 000:708.481 - 0.009ms returns 0x0000000A
T0DE0 000:708.488 JLINK_Go()
T0DE0 000:708.504   CPU_ReadMem(4 bytes @ 0xE0001000)
T0DE0 000:709.332   CPU_WriteMem(4 bytes @ 0xE0001000)
T0DE0 000:720.003 - 11.538ms
T0DE0 000:720.037 JLINK_IsHalted()
T0DE0 000:721.178 - 1.154ms returns FALSE
T0DE0 000:721.201 JLINK_HasError()
T0DE0 000:722.282 JLINK_IsHalted()
T0DE0 000:733.379   CPU_ReadMem(2 bytes @ 0x20000000)
T0DE0 000:734.370 - 12.097ms returns TRUE
T0DE0 000:734.393 JLINK_ReadReg(R15 (PC))
T0DE0 000:734.407 - 0.016ms returns 0x20000000
T0DE0 000:734.415 JLINK_ClrBPEx(BPHandle = 0x0000000A)
T0DE0 000:734.421 - 0.009ms returns 0x00
T0DE0 000:734.428 JLINK_ReadReg(R0)
T0DE0 000:734.434 - 0.008ms returns 0x00000000
T0DE0 000:735.065 JLINK_HasError()
T0DE0 000:735.087 JLINK_WriteReg(R0, 0x08002400)
T0DE0 000:735.099 - 0.016ms returns 0
T0DE0 000:735.110 JLINK_WriteReg(R1, 0x00000400)
T0DE0 000:735.122 - 0.016ms returns 0
T0DE0 000:735.133 JLINK_WriteReg(R2, 0x000000FF)
T0DE0 000:735.144 - 0.015ms returns 0
T0DE0 000:735.155 JLINK_WriteReg(R3, 0x00000000)
T0DE0 000:735.165 - 0.014ms returns 0
T0DE0 000:735.175 JLINK_WriteReg(R4, 0x00000000)
T0DE0 000:735.185 - 0.014ms returns 0
T0DE0 000:735.196 JLINK_WriteReg(R5, 0x00000000)
T0DE0 000:735.206 - 0.014ms returns 0
T0DE0 000:735.216 JLINK_WriteReg(R6, 0x00000000)
T0DE0 000:735.226 - 0.014ms returns 0
T0DE0 000:735.237 JLINK_WriteReg(R7, 0x00000000)
T0DE0 000:735.246 - 0.014ms returns 0
T0DE0 000:735.259 JLINK_WriteReg(R8, 0x00000000)
T0DE0 000:735.271 - 0.017ms returns 0
T0DE0 000:735.284 JLINK_WriteReg(R9, 0x2000016C)
T0DE0 000:735.300 - 0.027ms returns 0
T0DE0 000:735.320 JLINK_WriteReg(R10, 0x00000000)
T0DE0 000:735.332 - 0.017ms returns 0
T0DE0 000:735.343 JLINK_WriteReg(R11, 0x00000000)
T0DE0 000:735.353 - 0.014ms returns 0
T0DE0 000:735.364 JLINK_WriteReg(R12, 0x00000000)
T0DE0 000:735.373 - 0.014ms returns 0
T0DE0 000:735.384 JLINK_WriteReg(R13 (SP), 0x20001000)
T0DE0 000:735.395 - 0.016ms returns 0
T0DE0 000:735.406 JLINK_WriteReg(R14, 0x20000001)
T0DE0 000:735.416 - 0.014ms returns 0
T0DE0 000:735.426 JLINK_WriteReg(R15 (PC), 0x20000020)
T0DE0 000:735.437 - 0.014ms returns 0
T0DE0 000:735.447 JLINK_WriteReg(XPSR, 0x01000000)
T0DE0 000:735.457 - 0.014ms returns 0
T0DE0 000:735.468 JLINK_WriteReg(MSP, 0x20001000)
T0DE0 000:735.478 - 0.014ms returns 0
T0DE0 000:735.488 JLINK_WriteReg(PSP, 0x20001000)
T0DE0 000:735.498 - 0.014ms returns 0
T0DE0 000:735.509 JLINK_WriteReg(CFBP, 0x00000000)
T0DE0 000:735.518 - 0.014ms returns 0
T0DE0 000:735.529 JLINK_SetBPEx(Addr = 0x20000000, Type = 0xFFFFFFF2)
T0DE0 000:735.541 - 0.016ms returns 0x0000000B
T0DE0 000:735.552 JLINK_Go()
T0DE0 000:735.578   CPU_ReadMem(4 bytes @ 0xE0001000)
T0DE0 000:736.421   CPU_WriteMem(4 bytes @ 0xE0001000)
T0DE0 000:747.225 - 11.693ms
T0DE0 000:747.254 JLINK_IsHalted()
T0DE0 000:748.161 - 0.920ms returns FALSE
T0DE0 000:748.181 JLINK_HasError()
T0DE0 000:749.297 JLINK_IsHalted()
T0DE0 000:760.547   CPU_ReadMem(2 bytes @ 0x20000000)
T0DE0 000:761.532 - 12.255ms returns TRUE
T0DE0 000:761.563 JLINK_ReadReg(R15 (PC))
T0DE0 000:761.577 - 0.015ms returns 0x20000000
T0DE0 000:761.634 JLINK_ClrBPEx(BPHandle = 0x0000000B)
T0DE0 000:761.647 - 0.017ms returns 0x00
T0DE0 000:761.655 JLINK_ReadReg(R0)
T0DE0 000:761.661 - 0.008ms returns 0x00000000
T0DE0 000:762.238 JLINK_HasError()
T0DE0 000:762.250 JLINK_WriteReg(R0, 0x08002800)
T0DE0 000:762.259 - 0.011ms returns 0
T0DE0 000:762.265 JLINK_WriteReg(R1, 0x00000400)
T0DE0 000:762.271 - 0.008ms returns 0
T0DE0 000:762.279 JLINK_WriteReg(R2, 0x000000FF)
T0DE0 000:762.285 - 0.008ms returns 0
T0DE0 000:762.292 JLINK_WriteReg(R3, 0x00000000)
T0DE0 000:762.299 - 0.010ms returns 0
T0DE0 000:762.306 JLINK_WriteReg(R4, 0x00000000)
T0DE0 000:762.312 - 0.008ms returns 0
T0DE0 000:762.318 JLINK_WriteReg(R5, 0x00000000)
T0DE0 000:762.323 - 0.008ms returns 0
T0DE0 000:762.330 JLINK_WriteReg(R6, 0x00000000)
T0DE0 000:762.336 - 0.009ms returns 0
T0DE0 000:762.342 JLINK_WriteReg(R7, 0x00000000)
T0DE0 000:762.348 - 0.008ms returns 0
T0DE0 000:762.354 JLINK_WriteReg(R8, 0x00000000)
T0DE0 000:762.359 - 0.008ms returns 0
T0DE0 000:762.365 JLINK_WriteReg(R9, 0x2000016C)
T0DE0 000:762.371 - 0.008ms returns 0
T0DE0 000:762.377 JLINK_WriteReg(R10, 0x00000000)
T0DE0 000:762.383 - 0.008ms returns 0
T0DE0 000:762.389 JLINK_WriteReg(R11, 0x00000000)
T0DE0 000:762.395 - 0.008ms returns 0
T0DE0 000:762.401 JLINK_WriteReg(R12, 0x00000000)
T0DE0 000:762.406 - 0.013ms returns 0
T0DE0 000:762.421 JLINK_WriteReg(R13 (SP), 0x20001000)
T0DE0 000:762.427 - 0.009ms returns 0
T0DE0 000:762.434 JLINK_WriteReg(R14, 0x20000001)
T0DE0 000:762.441 - 0.009ms returns 0
T0DE0 000:762.446 JLINK_WriteReg(R15 (PC), 0x20000020)
T0DE0 000:762.452 - 0.008ms returns 0
T0DE0 000:762.459 JLINK_WriteReg(XPSR, 0x01000000)
T0DE0 000:762.465 - 0.009ms returns 0
T0DE0 000:762.471 JLINK_WriteReg(MSP, 0x20001000)
T0DE0 000:762.477 - 0.008ms returns 0
T0DE0 000:762.483 JLINK_WriteReg(PSP, 0x20001000)
T0DE0 000:762.488 - 0.008ms returns 0
T0DE0 000:762.495 JLINK_WriteReg(CFBP, 0x00000000)
T0DE0 000:762.500 - 0.008ms returns 0
T0DE0 000:762.506 JLINK_SetBPEx(Addr = 0x20000000, Type = 0xFFFFFFF2)
T0DE0 000:762.513 - 0.009ms returns 0x0000000C
T0DE0 000:762.519 JLINK_Go()
T0DE0 000:762.537   CPU_ReadMem(4 bytes @ 0xE0001000)
T0DE0 000:763.398   CPU_WriteMem(4 bytes @ 0xE0001000)
T0DE0 000:774.391 - 11.888ms
T0DE0 000:774.415 JLINK_IsHalted()
T0DE0 000:775.334 - 0.946ms returns FALSE
T0DE0 000:775.375 JLINK_HasError()
T0DE0 000:778.325 JLINK_IsHalted()
T0DE0 000:789.280   CPU_ReadMem(2 bytes @ 0x20000000)
T0DE0 000:790.248 - 11.931ms returns TRUE
T0DE0 000:790.272 JLINK_ReadReg(R15 (PC))
T0DE0 000:790.292 - 0.026ms returns 0x20000000
T0DE0 000:790.306 JLINK_ClrBPEx(BPHandle = 0x0000000C)
T0DE0 000:790.317 - 0.016ms returns 0x00
T0DE0 000:790.330 JLINK_ReadReg(R0)
T0DE0 000:790.340 - 0.014ms returns 0x00000000
T0DE0 000:791.256 JLINK_HasError()
T0DE0 000:791.277 JLINK_WriteReg(R0, 0x08002C00)
T0DE0 000:791.293 - 0.020ms returns 0
T0DE0 000:791.304 JLINK_WriteReg(R1, 0x00000400)
T0DE0 000:791.314 - 0.018ms returns 0
T0DE0 000:791.335 JLINK_WriteReg(R2, 0x000000FF)
T0DE0 000:791.346 - 0.016ms returns 0
T0DE0 000:791.357 JLINK_WriteReg(R3, 0x00000000)
T0DE0 000:791.368 - 0.015ms returns 0
T0DE0 000:791.379 JLINK_WriteReg(R4, 0x00000000)
T0DE0 000:791.389 - 0.014ms returns 0
T0DE0 000:791.399 JLINK_WriteReg(R5, 0x00000000)
T0DE0 000:791.409 - 0.014ms returns 0
T0DE0 000:791.420 JLINK_WriteReg(R6, 0x00000000)
T0DE0 000:791.430 - 0.014ms returns 0
T0DE0 000:791.441 JLINK_WriteReg(R7, 0x00000000)
T0DE0 000:791.451 - 0.014ms returns 0
T0DE0 000:791.462 JLINK_WriteReg(R8, 0x00000000)
T0DE0 000:791.472 - 0.015ms returns 0
T0DE0 000:791.483 JLINK_WriteReg(R9, 0x2000016C)
T0DE0 000:791.493 - 0.014ms returns 0
T0DE0 000:791.503 JLINK_WriteReg(R10, 0x00000000)
T0DE0 000:791.513 - 0.014ms returns 0
T0DE0 000:791.524 JLINK_WriteReg(R11, 0x00000000)
T0DE0 000:791.534 - 0.014ms returns 0
T0DE0 000:791.545 JLINK_WriteReg(R12, 0x00000000)
T0DE0 000:791.555 - 0.014ms returns 0
T0DE0 000:791.565 JLINK_WriteReg(R13 (SP), 0x20001000)
T0DE0 000:791.576 - 0.015ms returns 0
T0DE0 000:791.587 JLINK_WriteReg(R14, 0x20000001)
T0DE0 000:791.597 - 0.014ms returns 0
T0DE0 000:791.607 JLINK_WriteReg(R15 (PC), 0x20000020)
T0DE0 000:791.618 - 0.015ms returns 0
T0DE0 000:791.628 JLINK_WriteReg(XPSR, 0x01000000)
T0DE0 000:791.639 - 0.015ms returns 0
T0DE0 000:791.649 JLINK_WriteReg(MSP, 0x20001000)
T0DE0 000:791.659 - 0.014ms returns 0
T0DE0 000:791.670 JLINK_WriteReg(PSP, 0x20001000)
T0DE0 000:791.680 - 0.014ms returns 0
T0DE0 000:791.691 JLINK_WriteReg(CFBP, 0x00000000)
T0DE0 000:791.701 - 0.014ms returns 0
T0DE0 000:791.711 JLINK_SetBPEx(Addr = 0x20000000, Type = 0xFFFFFFF2)
T0DE0 000:791.723 - 0.016ms returns 0x0000000D
T0DE0 000:791.734 JLINK_Go()
T0DE0 000:791.757   CPU_ReadMem(4 bytes @ 0xE0001000)
T0DE0 000:792.752   CPU_WriteMem(4 bytes @ 0xE0001000)
T0DE0 000:803.659 - 11.945ms
T0DE0 000:803.687 JLINK_IsHalted()
T0DE0 000:804.671 - 0.997ms returns FALSE
T0DE0 000:804.694 JLINK_HasError()
T0DE0 000:806.313 JLINK_IsHalted()
T0DE0 000:817.378   CPU_ReadMem(2 bytes @ 0x20000000)
T0DE0 000:818.375 - 12.077ms returns TRUE
T0DE0 000:818.405 JLINK_ReadReg(R15 (PC))
T0DE0 000:818.422 - 0.021ms returns 0x20000000
T0DE0 000:818.436 JLINK_ClrBPEx(BPHandle = 0x0000000D)
T0DE0 000:818.447 - 0.015ms returns 0x00
T0DE0 000:818.459 JLINK_ReadReg(R0)
T0DE0 000:818.469 - 0.020ms returns 0x00000000
T0DE0 000:819.537 JLINK_HasError()
T0DE0 000:819.563 JLINK_WriteReg(R0, 0x08003000)
T0DE0 000:819.579 - 0.020ms returns 0
T0DE0 000:819.590 JLINK_WriteReg(R1, 0x00000400)
T0DE0 000:819.601 - 0.015ms returns 0
T0DE0 000:819.612 JLINK_WriteReg(R2, 0x000000FF)
T0DE0 000:819.622 - 0.015ms returns 0
T0DE0 000:819.633 JLINK_WriteReg(R3, 0x00000000)
T0DE0 000:819.643 - 0.015ms returns 0
T0DE0 000:819.654 JLINK_WriteReg(R4, 0x00000000)
T0DE0 000:819.664 - 0.014ms returns 0
T0DE0 000:819.675 JLINK_WriteReg(R5, 0x00000000)
T0DE0 000:819.685 - 0.014ms returns 0
T0DE0 000:819.696 JLINK_WriteReg(R6, 0x00000000)
T0DE0 000:819.706 - 0.014ms returns 0
T0DE0 000:819.717 JLINK_WriteReg(R7, 0x00000000)
T0DE0 000:819.727 - 0.014ms returns 0
T0DE0 000:819.737 JLINK_WriteReg(R8, 0x00000000)
T0DE0 000:819.747 - 0.014ms returns 0
T0DE0 000:819.758 JLINK_WriteReg(R9, 0x2000016C)
T0DE0 000:819.768 - 0.014ms returns 0
T0DE0 000:819.779 JLINK_WriteReg(R10, 0x00000000)
T0DE0 000:819.789 - 0.014ms returns 0
T0DE0 000:819.799 JLINK_WriteReg(R11, 0x00000000)
T0DE0 000:819.809 - 0.014ms returns 0
T0DE0 000:819.820 JLINK_WriteReg(R12, 0x00000000)
T0DE0 000:819.830 - 0.014ms returns 0
T0DE0 000:819.841 JLINK_WriteReg(R13 (SP), 0x20001000)
T0DE0 000:819.852 - 0.015ms returns 0
T0DE0 000:819.862 JLINK_WriteReg(R14, 0x20000001)
T0DE0 000:819.872 - 0.014ms returns 0
T0DE0 000:819.883 JLINK_WriteReg(R15 (PC), 0x20000020)
T0DE0 000:819.893 - 0.014ms returns 0
T0DE0 000:819.904 JLINK_WriteReg(XPSR, 0x01000000)
T0DE0 000:819.914 - 0.014ms returns 0
T0DE0 000:819.925 JLINK_WriteReg(MSP, 0x20001000)
T0DE0 000:819.935 - 0.014ms returns 0
T0DE0 000:819.946 JLINK_WriteReg(PSP, 0x20001000)
T0DE0 000:819.956 - 0.014ms returns 0
T0DE0 000:819.966 JLINK_WriteReg(CFBP, 0x00000000)
T0DE0 000:819.977 - 0.014ms returns 0
T0DE0 000:819.987 JLINK_SetBPEx(Addr = 0x20000000, Type = 0xFFFFFFF2)
T0DE0 000:819.999 - 0.016ms returns 0x0000000E
T0DE0 000:820.010 JLINK_Go()
T0DE0 000:820.034   CPU_ReadMem(4 bytes @ 0xE0001000)
T0DE0 000:820.862   CPU_WriteMem(4 bytes @ 0xE0001000)
T0DE0 000:831.725 - 11.737ms
T0DE0 000:831.760 JLINK_IsHalted()
T0DE0 000:832.689 - 0.942ms returns FALSE
T0DE0 000:832.712 JLINK_HasError()
T0DE0 000:834.299 JLINK_IsHalted()
T0DE0 000:846.086   CPU_ReadMem(2 bytes @ 0x20000000)
T0DE0 000:847.026 - 12.745ms returns TRUE
T0DE0 000:847.060 JLINK_ReadReg(R15 (PC))
T0DE0 000:847.078 - 0.023ms returns 0x20000000
T0DE0 000:847.091 JLINK_ClrBPEx(BPHandle = 0x0000000E)
T0DE0 000:847.102 - 0.015ms returns 0x00
T0DE0 000:847.114 JLINK_ReadReg(R0)
T0DE0 000:847.125 - 0.015ms returns 0x00000000
T0DE0 000:847.711 JLINK_HasError()
T0DE0 000:847.730 JLINK_WriteReg(R0, 0x00000001)
T0DE0 000:847.743 - 0.018ms returns 0
T0DE0 000:847.755 JLINK_WriteReg(R1, 0x00000400)
T0DE0 000:847.765 - 0.015ms returns 0
T0DE0 000:847.776 JLINK_WriteReg(R2, 0x000000FF)
T0DE0 000:847.786 - 0.014ms returns 0
T0DE0 000:847.797 JLINK_WriteReg(R3, 0x00000000)
T0DE0 000:847.807 - 0.014ms returns 0
T0DE0 000:847.817 JLINK_WriteReg(R4, 0x00000000)
T0DE0 000:847.827 - 0.014ms returns 0
T0DE0 000:847.838 JLINK_WriteReg(R5, 0x00000000)
T0DE0 000:847.848 - 0.014ms returns 0
T0DE0 000:847.859 JLINK_WriteReg(R6, 0x00000000)
T0DE0 000:847.869 - 0.014ms returns 0
T0DE0 000:847.880 JLINK_WriteReg(R7, 0x00000000)
T0DE0 000:847.890 - 0.014ms returns 0
T0DE0 000:847.900 JLINK_WriteReg(R8, 0x00000000)
T0DE0 000:847.911 - 0.014ms returns 0
T0DE0 000:847.921 JLINK_WriteReg(R9, 0x2000016C)
T0DE0 000:847.931 - 0.014ms returns 0
T0DE0 000:847.942 JLINK_WriteReg(R10, 0x00000000)
T0DE0 000:847.952 - 0.014ms returns 0
T0DE0 000:847.963 JLINK_WriteReg(R11, 0x00000000)
T0DE0 000:847.973 - 0.014ms returns 0
T0DE0 000:847.983 JLINK_WriteReg(R12, 0x00000000)
T0DE0 000:847.993 - 0.014ms returns 0
T0DE0 000:848.004 JLINK_WriteReg(R13 (SP), 0x20001000)
T0DE0 000:848.015 - 0.015ms returns 0
T0DE0 000:848.026 JLINK_WriteReg(R14, 0x20000001)
T0DE0 000:848.036 - 0.014ms returns 0
T0DE0 000:848.047 JLINK_WriteReg(R15 (PC), 0x20000066)
T0DE0 000:848.062 - 0.024ms returns 0
T0DE0 000:848.077 JLINK_WriteReg(XPSR, 0x01000000)
T0DE0 000:848.088 - 0.015ms returns 0
T0DE0 000:848.098 JLINK_WriteReg(MSP, 0x20001000)
T0DE0 000:848.108 - 0.014ms returns 0
T0DE0 000:848.119 JLINK_WriteReg(PSP, 0x20001000)
T0DE0 000:848.129 - 0.014ms returns 0
T0DE0 000:848.140 JLINK_WriteReg(CFBP, 0x00000000)
T0DE0 000:848.150 - 0.014ms returns 0
T0DE0 000:848.161 JLINK_SetBPEx(Addr = 0x20000000, Type = 0xFFFFFFF2)
T0DE0 000:848.172 - 0.016ms returns 0x0000000F
T0DE0 000:848.183 JLINK_Go()
T0DE0 000:848.207   CPU_ReadMem(4 bytes @ 0xE0001000)
T0DE0 000:849.170   CPU_WriteMem(4 bytes @ 0xE0001000)
T0DE0 000:860.022 - 11.868ms
T0DE0 000:860.064 JLINK_IsHalted()
T0DE0 000:871.144   CPU_ReadMem(2 bytes @ 0x20000000)
T0DE0 000:872.197 - 12.148ms returns TRUE
T0DE0 000:872.231 JLINK_ReadReg(R15 (PC))
T0DE0 000:872.250 - 0.024ms returns 0x20000000
T0DE0 000:872.264 JLINK_ClrBPEx(BPHandle = 0x0000000F)
T0DE0 000:872.277 - 0.018ms returns 0x00
T0DE0 000:872.292 JLINK_ReadReg(R0)
T0DE0 000:872.307 - 0.021ms returns 0x00000000
T0DE0 000:931.269 JLINK_WriteMem(0x20000000, 0x170 Bytes, ...)
T0DE0 000:931.287   Data:  00 BE 0A E0 0D 78 2D 06 68 40 08 24 40 00 00 D3 ...
T0DE0 000:931.312   CPU_WriteMem(368 bytes @ 0x20000000)
T0DE0 000:941.202 - 9.955ms returns 0x170
T0DE0 000:941.282 JLINK_HasError()
T0DE0 000:941.297 JLINK_WriteReg(R0, 0x08000000)
T0DE0 000:941.315 - 0.023ms returns 0
T0DE0 000:941.327 JLINK_WriteReg(R1, 0x007A1200)
T0DE0 000:941.337 - 0.014ms returns 0
T0DE0 000:941.348 JLINK_WriteReg(R2, 0x00000002)
T0DE0 000:941.358 - 0.014ms returns 0
T0DE0 000:941.368 JLINK_WriteReg(R3, 0x00000000)
T0DE0 000:941.378 - 0.014ms returns 0
T0DE0 000:941.389 JLINK_WriteReg(R4, 0x00000000)
T0DE0 000:941.399 - 0.014ms returns 0
T0DE0 000:941.409 JLINK_WriteReg(R5, 0x00000000)
T0DE0 000:941.419 - 0.014ms returns 0
